
Note: No compatibility mode selected!


Circuit: tb001-ga144-test-bringup-spi-enabled

Doing analysis at TEMP = 27.000000 and TNOM = 27.000000

Using SPARSE 1.3 as Direct Linear Solver

Initial Transient Solution
--------------------------

Node                                   Voltage
----                                   -------
vin_src                                    1.8
vdrv                                       3.3
bootmode                                     0
enable_hold                                3.3
reset_assert                               3.3
vin_main                               1.79888
vmaster                                1.79799
vu2                                    1.79754
vu1                                    1.79785
vu3                                    1.79792
reset_hold                         8.23361e-05
gcore                              0.000578734
vcore                             -3.29893e-42
gio                                0.000578734
vio                               -3.23436e-40
gan                                0.000578734
van                               -1.36398e-39
vresetassert#branch                          0
venablehold#branch                           0
vbootsel#branch                              0
vgatedrv#branch                   -0.000210601
vmain1p8#branch                     -0.0223309


No. of Data Rows : 624
                      tb001-ga144-test-bringup-spi-enabled
                      Transient Analysis  Sat Jun 13 17:42:20  2026
--------------------------------------------------------------------------------
Index   time            v(vin_main)     v(vmaster)      v(vu2)          
--------------------------------------------------------------------------------
0	0.000000e+00	1.798883e+00	1.797990e+00	1.797541e+00	
1	2.000000e-07	1.798883e+00	1.797990e+00	1.797541e+00	
2	4.000000e-07	1.798883e+00	1.797990e+00	1.797541e+00	
3	8.000000e-07	1.798883e+00	1.797990e+00	1.797541e+00	
4	1.600000e-06	1.798883e+00	1.797990e+00	1.797541e+00	
5	3.200000e-06	1.798883e+00	1.797990e+00	1.797541e+00	
6	6.400000e-06	1.798883e+00	1.797990e+00	1.797541e+00	
7	1.280000e-05	1.798883e+00	1.797990e+00	1.797541e+00	
8	2.560000e-05	1.798883e+00	1.797990e+00	1.797541e+00	
9	4.560000e-05	1.798883e+00	1.797990e+00	1.797541e+00	
10	6.560000e-05	1.798883e+00	1.797990e+00	1.797541e+00	
11	8.560000e-05	1.798883e+00	1.797990e+00	1.797541e+00	
12	1.056000e-04	1.798883e+00	1.797990e+00	1.797541e+00	
13	1.256000e-04	1.798883e+00	1.797990e+00	1.797541e+00	
14	1.456000e-04	1.798883e+00	1.797990e+00	1.797541e+00	
15	1.656000e-04	1.798883e+00	1.797990e+00	1.797541e+00	
16	1.856000e-04	1.798883e+00	1.797990e+00	1.797541e+00	
17	2.056000e-04	1.798883e+00	1.797990e+00	1.797541e+00	
18	2.256000e-04	1.798883e+00	1.797990e+00	1.797541e+00	
19	2.456000e-04	1.798883e+00	1.797990e+00	1.797541e+00	
20	2.656000e-04	1.798883e+00	1.797990e+00	1.797541e+00	
21	2.856000e-04	1.798883e+00	1.797990e+00	1.797541e+00	
22	3.056000e-04	1.798883e+00	1.797990e+00	1.797541e+00	
23	3.256000e-04	1.798883e+00	1.797990e+00	1.797541e+00	
24	3.456000e-04	1.798883e+00	1.797990e+00	1.797541e+00	
25	3.656000e-04	1.798883e+00	1.797990e+00	1.797541e+00	
26	3.856000e-04	1.798883e+00	1.797990e+00	1.797541e+00	
27	4.056000e-04	1.798883e+00	1.797990e+00	1.797541e+00	
28	4.256000e-04	1.798883e+00	1.797990e+00	1.797541e+00	
29	4.456000e-04	1.798883e+00	1.797990e+00	1.797541e+00	
30	4.656000e-04	1.798883e+00	1.797990e+00	1.797541e+00	
31	4.856000e-04	1.798883e+00	1.797990e+00	1.797541e+00	
32	5.056000e-04	1.798883e+00	1.797990e+00	1.797541e+00	
33	5.256000e-04	1.798883e+00	1.797990e+00	1.797541e+00	
34	5.456000e-04	1.798883e+00	1.797990e+00	1.797541e+00	
35	5.656000e-04	1.798883e+00	1.797990e+00	1.797541e+00	
36	5.856000e-04	1.798883e+00	1.797990e+00	1.797541e+00	
37	6.056000e-04	1.798883e+00	1.797990e+00	1.797541e+00	
38	6.256000e-04	1.798883e+00	1.797990e+00	1.797541e+00	
39	6.456000e-04	1.798883e+00	1.797990e+00	1.797541e+00	
40	6.656000e-04	1.798883e+00	1.797990e+00	1.797541e+00	
41	6.856000e-04	1.798883e+00	1.797990e+00	1.797541e+00	
42	7.056000e-04	1.798883e+00	1.797990e+00	1.797541e+00	
43	7.256000e-04	1.798883e+00	1.797990e+00	1.797541e+00	
44	7.456000e-04	1.798883e+00	1.797990e+00	1.797541e+00	
45	7.656000e-04	1.798883e+00	1.797990e+00	1.797541e+00	
46	7.856000e-04	1.798883e+00	1.797990e+00	1.797541e+00	
47	8.056000e-04	1.798883e+00	1.797990e+00	1.797541e+00	
48	8.256000e-04	1.798883e+00	1.797990e+00	1.797541e+00	
49	8.456000e-04	1.798883e+00	1.797990e+00	1.797541e+00	
50	8.656000e-04	1.798883e+00	1.797990e+00	1.797541e+00	
51	8.856000e-04	1.798883e+00	1.797990e+00	1.797541e+00	
52	9.056000e-04	1.798883e+00	1.797990e+00	1.797541e+00	
53	9.256000e-04	1.798883e+00	1.797990e+00	1.797541e+00	
54	9.456000e-04	1.798883e+00	1.797990e+00	1.797541e+00	

Index   time            v(vin_main)     v(vmaster)      v(vu2)          
--------------------------------------------------------------------------------
55	9.656000e-04	1.798883e+00	1.797990e+00	1.797541e+00	
56	9.856000e-04	1.798883e+00	1.797990e+00	1.797541e+00	
57	1.000000e-03	1.798883e+00	1.797990e+00	1.797541e+00	
58	1.002000e-03	1.798883e+00	1.797990e+00	1.797541e+00	
59	1.006000e-03	1.798883e+00	1.797990e+00	1.797541e+00	
60	1.014000e-03	1.798883e+00	1.797990e+00	1.797541e+00	
61	1.020000e-03	1.436412e+00	1.474745e+00	1.483787e+00	
62	1.021407e-03	1.441399e+00	1.448310e+00	1.450101e+00	
63	1.024222e-03	1.528294e+00	1.505714e+00	1.499995e+00	
64	1.029275e-03	1.692249e+00	1.686732e+00	1.685062e+00	
65	1.035175e-03	1.742046e+00	1.739288e+00	1.738472e+00	
66	1.042196e-03	1.774619e+00	1.772197e+00	1.771293e+00	
67	1.055418e-03	1.788490e+00	1.788238e+00	1.788024e+00	
68	1.073501e-03	1.795223e+00	1.793490e+00	1.792762e+00	
69	1.093501e-03	1.793693e+00	1.793632e+00	1.793457e+00	
70	1.113501e-03	1.795490e+00	1.793772e+00	1.793053e+00	
71	1.133501e-03	1.793995e+00	1.793918e+00	1.793734e+00	
72	1.153501e-03	1.795296e+00	1.793609e+00	1.792904e+00	
73	1.173501e-03	1.794157e+00	1.794039e+00	1.793839e+00	
74	1.193501e-03	1.795166e+00	1.793527e+00	1.792839e+00	
75	1.213501e-03	1.794264e+00	1.794093e+00	1.793875e+00	
76	1.233501e-03	1.795077e+00	1.793493e+00	1.792825e+00	
77	1.253501e-03	1.794338e+00	1.794111e+00	1.793874e+00	
78	1.273501e-03	1.795014e+00	1.793488e+00	1.792837e+00	
79	1.293501e-03	1.794392e+00	1.794108e+00	1.793852e+00	
80	1.313501e-03	1.794967e+00	1.793497e+00	1.792865e+00	
81	1.333501e-03	1.794433e+00	1.794094e+00	1.793821e+00	
82	1.353501e-03	1.794932e+00	1.793514e+00	1.792899e+00	
83	1.373501e-03	1.794465e+00	1.794075e+00	1.793786e+00	
84	1.393501e-03	1.794903e+00	1.793534e+00	1.792935e+00	
85	1.413501e-03	1.794491e+00	1.794054e+00	1.793750e+00	
86	1.433501e-03	1.794879e+00	1.793555e+00	1.792970e+00	
87	1.453501e-03	1.794513e+00	1.794033e+00	1.793714e+00	
88	1.473501e-03	1.794859e+00	1.793577e+00	1.793005e+00	
89	1.493501e-03	1.794531e+00	1.794012e+00	1.793681e+00	
90	1.513501e-03	1.794841e+00	1.793597e+00	1.793037e+00	
91	1.533501e-03	1.794548e+00	1.793992e+00	1.793650e+00	
92	1.553501e-03	1.794826e+00	1.793616e+00	1.793066e+00	
93	1.573501e-03	1.794562e+00	1.793974e+00	1.793622e+00	
94	1.593501e-03	1.794812e+00	1.793633e+00	1.793093e+00	
95	1.613501e-03	1.794575e+00	1.793958e+00	1.793596e+00	
96	1.633501e-03	1.794800e+00	1.793649e+00	1.793118e+00	
97	1.653501e-03	1.794586e+00	1.793942e+00	1.793573e+00	
98	1.673501e-03	1.794789e+00	1.793663e+00	1.793141e+00	
99	1.693501e-03	1.794597e+00	1.793929e+00	1.793551e+00	
100	1.713501e-03	1.794780e+00	1.793677e+00	1.793161e+00	
101	1.733501e-03	1.794606e+00	1.793916e+00	1.793532e+00	
102	1.753501e-03	1.794771e+00	1.793688e+00	1.793179e+00	
103	1.773501e-03	1.794614e+00	1.793905e+00	1.793514e+00	
104	1.793501e-03	1.794763e+00	1.793699e+00	1.793196e+00	
105	1.813501e-03	1.794622e+00	1.793895e+00	1.793498e+00	
106	1.833501e-03	1.794756e+00	1.793709e+00	1.793211e+00	
107	1.853501e-03	1.794628e+00	1.793885e+00	1.793484e+00	
108	1.873501e-03	1.794750e+00	1.793718e+00	1.793225e+00	
109	1.893501e-03	1.794634e+00	1.793877e+00	1.793471e+00	
110	1.913501e-03	1.794744e+00	1.793726e+00	1.793237e+00	
111	1.933501e-03	1.794640e+00	1.793869e+00	1.793459e+00	
112	1.953501e-03	1.794739e+00	1.793733e+00	1.793248e+00	

Index   time            v(vin_main)     v(vmaster)      v(vu2)          
--------------------------------------------------------------------------------
113	1.973501e-03	1.794645e+00	1.793862e+00	1.793449e+00	
114	1.993501e-03	1.794734e+00	1.793739e+00	1.793258e+00	
115	2.013501e-03	1.794649e+00	1.793856e+00	1.793439e+00	
116	2.033501e-03	1.794730e+00	1.793745e+00	1.793267e+00	
117	2.053501e-03	1.794653e+00	1.793851e+00	1.793431e+00	
118	2.073501e-03	1.794726e+00	1.793751e+00	1.793275e+00	
119	2.093501e-03	1.794657e+00	1.793846e+00	1.793423e+00	
120	2.113501e-03	1.794722e+00	1.793755e+00	1.793283e+00	
121	2.133501e-03	1.794660e+00	1.793841e+00	1.793416e+00	
122	2.153501e-03	1.794719e+00	1.793760e+00	1.793289e+00	
123	2.173501e-03	1.794663e+00	1.793837e+00	1.793410e+00	
124	2.193501e-03	1.794717e+00	1.793764e+00	1.793295e+00	
125	2.213501e-03	1.794666e+00	1.793833e+00	1.793404e+00	
126	2.233501e-03	1.794714e+00	1.793767e+00	1.793301e+00	
127	2.253501e-03	1.794668e+00	1.793830e+00	1.793399e+00	
128	2.273501e-03	1.794712e+00	1.793770e+00	1.793306e+00	
129	2.293501e-03	1.794670e+00	1.793827e+00	1.793394e+00	
130	2.313501e-03	1.794710e+00	1.793773e+00	1.793310e+00	
131	2.333501e-03	1.794672e+00	1.793824e+00	1.793390e+00	
132	2.353501e-03	1.794708e+00	1.793776e+00	1.793314e+00	
133	2.373501e-03	1.794674e+00	1.793822e+00	1.793386e+00	
134	2.393501e-03	1.794706e+00	1.793778e+00	1.793318e+00	
135	2.413501e-03	1.794676e+00	1.793820e+00	1.793383e+00	
136	2.433501e-03	1.794705e+00	1.793780e+00	1.793321e+00	
137	2.453501e-03	1.794677e+00	1.793818e+00	1.793380e+00	
138	2.473501e-03	1.794703e+00	1.793782e+00	1.793324e+00	
139	2.493501e-03	1.794679e+00	1.793816e+00	1.793377e+00	
140	2.500000e-03	1.794701e+00	1.793785e+00	1.793329e+00	
141	2.501484e-03	1.794692e+00	1.793797e+00	1.793348e+00	
142	2.504451e-03	1.794689e+00	1.793801e+00	1.793353e+00	
143	2.510386e-03	1.794691e+00	1.793798e+00	1.793349e+00	
144	2.518561e-03	1.794690e+00	1.793801e+00	1.793353e+00	
145	2.520000e-03	1.794691e+00	1.793799e+00	1.793350e+00	
146	2.520799e-03	1.794691e+00	1.793799e+00	1.793351e+00	
147	2.522397e-03	1.794691e+00	1.793799e+00	1.793351e+00	
148	2.525594e-03	1.794691e+00	1.793799e+00	1.793351e+00	
149	2.531987e-03	1.794691e+00	1.793799e+00	1.793351e+00	
150	2.544773e-03	1.794691e+00	1.793799e+00	1.793351e+00	
151	2.564773e-03	1.794691e+00	1.793799e+00	1.793351e+00	
152	2.584773e-03	1.794691e+00	1.793799e+00	1.793351e+00	
153	2.604773e-03	1.794691e+00	1.793799e+00	1.793351e+00	
154	2.624773e-03	1.794691e+00	1.793799e+00	1.793351e+00	
155	2.644773e-03	1.794691e+00	1.793799e+00	1.793351e+00	
156	2.664773e-03	1.794691e+00	1.793799e+00	1.793351e+00	
157	2.684773e-03	1.794691e+00	1.793799e+00	1.793351e+00	
158	2.704773e-03	1.794691e+00	1.793799e+00	1.793351e+00	
159	2.724773e-03	1.794691e+00	1.793799e+00	1.793351e+00	
160	2.744773e-03	1.794691e+00	1.793799e+00	1.793351e+00	
161	2.764773e-03	1.794691e+00	1.793799e+00	1.793351e+00	
162	2.784773e-03	1.794691e+00	1.793799e+00	1.793351e+00	
163	2.804773e-03	1.794691e+00	1.793799e+00	1.793351e+00	
164	2.824773e-03	1.794691e+00	1.793799e+00	1.793351e+00	
165	2.844773e-03	1.794691e+00	1.793799e+00	1.793351e+00	
166	2.864773e-03	1.794691e+00	1.793799e+00	1.793351e+00	
167	2.884773e-03	1.794691e+00	1.793799e+00	1.793351e+00	
168	2.904773e-03	1.794691e+00	1.793799e+00	1.793351e+00	
169	2.924773e-03	1.794691e+00	1.793799e+00	1.793351e+00	
170	2.944773e-03	1.794691e+00	1.793799e+00	1.793351e+00	

Index   time            v(vin_main)     v(vmaster)      v(vu2)          
--------------------------------------------------------------------------------
171	2.964773e-03	1.794691e+00	1.793799e+00	1.793351e+00	
172	2.984773e-03	1.794691e+00	1.793799e+00	1.793351e+00	
173	3.004773e-03	1.794691e+00	1.793799e+00	1.793351e+00	
174	3.024773e-03	1.794691e+00	1.793799e+00	1.793351e+00	
175	3.044773e-03	1.794691e+00	1.793799e+00	1.793351e+00	
176	3.064773e-03	1.794691e+00	1.793799e+00	1.793351e+00	
177	3.084773e-03	1.794691e+00	1.793799e+00	1.793351e+00	
178	3.104773e-03	1.794691e+00	1.793799e+00	1.793351e+00	
179	3.124773e-03	1.794691e+00	1.793799e+00	1.793351e+00	
180	3.144773e-03	1.794691e+00	1.793799e+00	1.793351e+00	
181	3.164773e-03	1.794691e+00	1.793799e+00	1.793351e+00	
182	3.184773e-03	1.794691e+00	1.793799e+00	1.793351e+00	
183	3.204773e-03	1.794691e+00	1.793799e+00	1.793351e+00	
184	3.224773e-03	1.794691e+00	1.793799e+00	1.793351e+00	
185	3.244773e-03	1.794691e+00	1.793799e+00	1.793351e+00	
186	3.264773e-03	1.794691e+00	1.793799e+00	1.793351e+00	
187	3.284773e-03	1.794691e+00	1.793799e+00	1.793351e+00	
188	3.304773e-03	1.794691e+00	1.793799e+00	1.793351e+00	
189	3.324773e-03	1.794691e+00	1.793799e+00	1.793351e+00	
190	3.344773e-03	1.794691e+00	1.793799e+00	1.793351e+00	
191	3.364773e-03	1.794691e+00	1.793799e+00	1.793351e+00	
192	3.384773e-03	1.794691e+00	1.793799e+00	1.793351e+00	
193	3.404773e-03	1.794691e+00	1.793799e+00	1.793351e+00	
194	3.424773e-03	1.794691e+00	1.793799e+00	1.793351e+00	
195	3.444773e-03	1.794691e+00	1.793799e+00	1.793351e+00	
196	3.464773e-03	1.794691e+00	1.793799e+00	1.793351e+00	
197	3.484773e-03	1.794691e+00	1.793799e+00	1.793351e+00	
198	3.504773e-03	1.794691e+00	1.793799e+00	1.793351e+00	
199	3.524773e-03	1.794691e+00	1.793799e+00	1.793351e+00	
200	3.544773e-03	1.794691e+00	1.793799e+00	1.793351e+00	
201	3.564773e-03	1.794691e+00	1.793799e+00	1.793351e+00	
202	3.584773e-03	1.794691e+00	1.793799e+00	1.793351e+00	
203	3.604773e-03	1.794691e+00	1.793799e+00	1.793351e+00	
204	3.624773e-03	1.794691e+00	1.793799e+00	1.793351e+00	
205	3.644773e-03	1.794691e+00	1.793799e+00	1.793351e+00	
206	3.664773e-03	1.794691e+00	1.793799e+00	1.793351e+00	
207	3.684773e-03	1.794691e+00	1.793799e+00	1.793351e+00	
208	3.704773e-03	1.794691e+00	1.793799e+00	1.793351e+00	
209	3.724773e-03	1.794691e+00	1.793799e+00	1.793351e+00	
210	3.744773e-03	1.794691e+00	1.793799e+00	1.793351e+00	
211	3.764773e-03	1.794691e+00	1.793799e+00	1.793351e+00	
212	3.784773e-03	1.794691e+00	1.793799e+00	1.793351e+00	
213	3.804773e-03	1.794691e+00	1.793799e+00	1.793351e+00	
214	3.824773e-03	1.794691e+00	1.793799e+00	1.793351e+00	
215	3.844773e-03	1.794691e+00	1.793799e+00	1.793351e+00	
216	3.864773e-03	1.794691e+00	1.793799e+00	1.793351e+00	
217	3.884773e-03	1.794691e+00	1.793799e+00	1.793351e+00	
218	3.904773e-03	1.794691e+00	1.793799e+00	1.793351e+00	
219	3.924773e-03	1.794691e+00	1.793799e+00	1.793351e+00	
220	3.944773e-03	1.794691e+00	1.793799e+00	1.793351e+00	
221	3.964773e-03	1.794691e+00	1.793799e+00	1.793351e+00	
222	3.984773e-03	1.794691e+00	1.793799e+00	1.793351e+00	
223	4.004773e-03	1.794691e+00	1.793799e+00	1.793351e+00	
224	4.024773e-03	1.794691e+00	1.793799e+00	1.793351e+00	
225	4.044773e-03	1.794691e+00	1.793799e+00	1.793351e+00	
226	4.064773e-03	1.794691e+00	1.793799e+00	1.793351e+00	
227	4.084773e-03	1.794691e+00	1.793799e+00	1.793351e+00	
228	4.104773e-03	1.794691e+00	1.793799e+00	1.793351e+00	

Index   time            v(vin_main)     v(vmaster)      v(vu2)          
--------------------------------------------------------------------------------
229	4.124773e-03	1.794691e+00	1.793799e+00	1.793351e+00	
230	4.144773e-03	1.794691e+00	1.793799e+00	1.793351e+00	
231	4.164773e-03	1.794691e+00	1.793799e+00	1.793351e+00	
232	4.184773e-03	1.794691e+00	1.793799e+00	1.793351e+00	
233	4.204773e-03	1.794691e+00	1.793799e+00	1.793351e+00	
234	4.224773e-03	1.794691e+00	1.793799e+00	1.793351e+00	
235	4.244773e-03	1.794691e+00	1.793799e+00	1.793351e+00	
236	4.264773e-03	1.794691e+00	1.793799e+00	1.793351e+00	
237	4.284773e-03	1.794691e+00	1.793799e+00	1.793351e+00	
238	4.304773e-03	1.794691e+00	1.793799e+00	1.793351e+00	
239	4.324773e-03	1.794691e+00	1.793799e+00	1.793351e+00	
240	4.344773e-03	1.794691e+00	1.793799e+00	1.793351e+00	
241	4.364773e-03	1.794691e+00	1.793799e+00	1.793351e+00	
242	4.384773e-03	1.794691e+00	1.793799e+00	1.793351e+00	
243	4.404773e-03	1.794691e+00	1.793799e+00	1.793351e+00	
244	4.424773e-03	1.794691e+00	1.793799e+00	1.793351e+00	
245	4.444773e-03	1.794691e+00	1.793799e+00	1.793351e+00	
246	4.464773e-03	1.794691e+00	1.793799e+00	1.793351e+00	
247	4.484773e-03	1.794691e+00	1.793799e+00	1.793351e+00	
248	4.504773e-03	1.794691e+00	1.793799e+00	1.793351e+00	
249	4.524773e-03	1.794691e+00	1.793800e+00	1.793351e+00	
250	4.544773e-03	1.794691e+00	1.793800e+00	1.793351e+00	
251	4.564773e-03	1.794691e+00	1.793800e+00	1.793351e+00	
252	4.584773e-03	1.794691e+00	1.793800e+00	1.793351e+00	
253	4.604773e-03	1.794691e+00	1.793800e+00	1.793351e+00	
254	4.624773e-03	1.794691e+00	1.793800e+00	1.793351e+00	
255	4.644773e-03	1.794691e+00	1.793800e+00	1.793351e+00	
256	4.664773e-03	1.794691e+00	1.793800e+00	1.793351e+00	
257	4.684773e-03	1.794691e+00	1.793800e+00	1.793351e+00	
258	4.704773e-03	1.794691e+00	1.793800e+00	1.793351e+00	
259	4.724773e-03	1.794691e+00	1.793800e+00	1.793351e+00	
260	4.744773e-03	1.794691e+00	1.793800e+00	1.793351e+00	
261	4.764773e-03	1.794691e+00	1.793800e+00	1.793351e+00	
262	4.784773e-03	1.794691e+00	1.793800e+00	1.793351e+00	
263	4.804773e-03	1.794691e+00	1.793800e+00	1.793351e+00	
264	4.824773e-03	1.794691e+00	1.793800e+00	1.793351e+00	
265	4.844773e-03	1.794691e+00	1.793800e+00	1.793351e+00	
266	4.864773e-03	1.794691e+00	1.793800e+00	1.793351e+00	
267	4.884773e-03	1.794691e+00	1.793800e+00	1.793351e+00	
268	4.904773e-03	1.794691e+00	1.793800e+00	1.793351e+00	
269	4.924773e-03	1.794691e+00	1.793800e+00	1.793351e+00	
270	4.944773e-03	1.794691e+00	1.793800e+00	1.793351e+00	
271	4.964773e-03	1.794691e+00	1.793800e+00	1.793351e+00	
272	4.984773e-03	1.794691e+00	1.793800e+00	1.793351e+00	
273	5.004773e-03	1.794691e+00	1.793800e+00	1.793351e+00	
274	5.024773e-03	1.794691e+00	1.793800e+00	1.793351e+00	
275	5.044773e-03	1.794691e+00	1.793800e+00	1.793351e+00	
276	5.064773e-03	1.794691e+00	1.793800e+00	1.793351e+00	
277	5.084773e-03	1.794691e+00	1.793800e+00	1.793351e+00	
278	5.104773e-03	1.794691e+00	1.793800e+00	1.793351e+00	
279	5.124773e-03	1.794691e+00	1.793800e+00	1.793351e+00	
280	5.144773e-03	1.794691e+00	1.793800e+00	1.793351e+00	
281	5.164773e-03	1.794691e+00	1.793800e+00	1.793351e+00	
282	5.184773e-03	1.794691e+00	1.793800e+00	1.793351e+00	
283	5.204773e-03	1.794691e+00	1.793800e+00	1.793351e+00	
284	5.224773e-03	1.794691e+00	1.793800e+00	1.793351e+00	
285	5.244773e-03	1.794691e+00	1.793800e+00	1.793351e+00	
286	5.264773e-03	1.794691e+00	1.793800e+00	1.793351e+00	

Index   time            v(vin_main)     v(vmaster)      v(vu2)          
--------------------------------------------------------------------------------
287	5.284773e-03	1.794691e+00	1.793800e+00	1.793351e+00	
288	5.304773e-03	1.794691e+00	1.793800e+00	1.793351e+00	
289	5.324773e-03	1.794691e+00	1.793800e+00	1.793351e+00	
290	5.344773e-03	1.794691e+00	1.793800e+00	1.793351e+00	
291	5.364773e-03	1.794691e+00	1.793800e+00	1.793351e+00	
292	5.384773e-03	1.794691e+00	1.793800e+00	1.793351e+00	
293	5.404773e-03	1.794691e+00	1.793800e+00	1.793351e+00	
294	5.424773e-03	1.794691e+00	1.793800e+00	1.793351e+00	
295	5.444773e-03	1.794691e+00	1.793800e+00	1.793351e+00	
296	5.464773e-03	1.794691e+00	1.793800e+00	1.793351e+00	
297	5.484773e-03	1.794691e+00	1.793800e+00	1.793351e+00	
298	5.504773e-03	1.794691e+00	1.793800e+00	1.793351e+00	
299	5.524773e-03	1.794691e+00	1.793800e+00	1.793351e+00	
300	5.544773e-03	1.794691e+00	1.793800e+00	1.793351e+00	
301	5.564773e-03	1.794691e+00	1.793800e+00	1.793351e+00	
302	5.584773e-03	1.794691e+00	1.793800e+00	1.793351e+00	
303	5.604773e-03	1.794691e+00	1.793800e+00	1.793351e+00	
304	5.624773e-03	1.794691e+00	1.793800e+00	1.793351e+00	
305	5.644773e-03	1.794691e+00	1.793800e+00	1.793351e+00	
306	5.664773e-03	1.794691e+00	1.793800e+00	1.793351e+00	
307	5.684773e-03	1.794691e+00	1.793800e+00	1.793351e+00	
